"# Channel 1"
"# Trace 1"
Frequency, Formatted Data, Formatted Data
+2.00000000000E+009, +1.95077115956E+001, +7.83767964693E+001
+2.00500000000E+009, +2.57262656436E+001, +9.52818449958E+001
+2.01000000000E+009, +3.30212169893E+001, +1.16205208891E+002
+2.01500000000E+009, +4.01134517450E+001, +1.42134140088E+002
+2.02000000000E+009, +4.55104194297E+001, +1.70843390967E+002
+2.02500000000E+009, +4.75214616856E+001, +2.00287862211E+002
+2.03000000000E+009, +4.33553866462E+001, +2.24744088360E+002
+2.03500000000E+009, +3.27214248046E+001, +2.38681602185E+002
+2.04000000000E+009, +2.17923118933E+001, +2.38444719463E+002
+2.04500000000E+009, +1.17470275925E+001, +2.28139328192E+002
+2.05000000000E+009, +4.48779170820E+000, +2.11197212702E+002
+2.05500000000E+009, -1.51058510227E-001, +1.91085492459E+002
+2.06000000000E+009, -2.90605318051E+000, +1.71882778001E+002
+2.06500000000E+009, -3.01427036208E+000, +1.54168174649E+002
+2.07000000000E+009, -3.16945857430E+000, +1.38131441590E+002
+2.07500000000E+009, -2.98148772987E+000, +1.24494956152E+002
+2.08000000000E+009, -2.17870925935E+000, +1.12397843792E+002
+2.08500000000E+009, -1.70270851221E+000, +1.02264229003E+002
+2.09000000000E+009, -9.93114999803E-001, +9.38205861775E+001
+2.09500000000E+009, -2.64053790864E-001, +8.66357223832E+001
+2.10000000000E+009, +5.75820351113E-001, +8.06817511283E+001
+2.10500000000E+009, +1.31639981920E+000, +7.56780765363E+001
+2.11000000000E+009, +2.26194700033E+000, +7.20164410457E+001
+2.11500000000E+009, +3.06245790085E+000, +6.90807401042E+001
+2.12000000000E+009, +4.23648223022E+000, +6.72537250939E+001
+2.12500000000E+009, +5.65972303710E+000, +6.63651636874E+001
+2.13000000000E+009, +7.52779916577E+000, +6.69964578521E+001
+2.13500000000E+009, +9.98430193587E+000, +6.91797504777E+001
+2.14000000000E+009, +1.36238320079E+001, +7.33826933963E+001
+2.14500000000E+009, +1.90663794424E+001, +8.01556090923E+001
+2.15000000000E+009, +2.70184693261E+001, +9.06153143678E+001
+2.15500000000E+009, +4.02679446066E+001, +1.05674338134E+002
+2.16000000000E+009, +6.37808285341E+001, +1.27915876810E+002
+2.16500000000E+009, +1.05209569863E+002, +1.57266167169E+002
+2.17000000000E+009, +1.85716684667E+002, +1.88860007822E+002
+2.17500000000E+009, +3.28925371378E+002, +1.78928410521E+002
+2.18000000000E+009, +5.02430326953E+002, +4.60218841494E+001
+2.18500000000E+009, +5.22521572038E+002, -1.96332885762E+002
+2.19000000000E+009, +4.19567932543E+002, -3.51837826040E+002
+2.19500000000E+009, +3.34428744661E+002, -4.21832586126E+002
+2.20000000000E+009, +3.03505078666E+002, -4.69635495104E+002
+2.20500000000E+009, +3.13460776533E+002, -5.23829754501E+002
+2.21000000000E+009, +3.85530248352E+002, -6.12808777937E+002
+2.21500000000E+009, +6.10382569221E+002, -7.15059665067E+002
+2.22000000000E+009, +1.21191940030E+003, -6.13992772912E+002
+2.22500000000E+009, +1.49714201645E+003, +3.45215832444E+002
+2.23000000000E+009, +7.05665903319E+002, +8.02974350375E+002
+2.23500000000E+009, +3.29542645152E+002, +6.29567134423E+002
+2.24000000000E+009, +1.95376319686E+002, +4.90768435446E+002
+2.24500000000E+009, +1.44659350265E+002, +3.96214072325E+002
+2.25000000000E+009, +1.20491747371E+002, +3.33795251077E+002
+2.25500000000E+009, +1.17432907604E+002, +2.88170719015E+002
+2.26000000000E+009, +1.23913381887E+002, +2.57872974309E+002
+2.26500000000E+009, +1.39194226227E+002, +2.27124904716E+002
+2.27000000000E+009, +1.65757619626E+002, +1.96985773934E+002
+2.27500000000E+009, +1.94825600369E+002, +1.52199676690E+002
+2.28000000000E+009, +2.10746241311E+002, +8.36128712281E+001
+2.28500000000E+009, +1.92926083084E+002, +1.04212450816E+001
+2.29000000000E+009, +1.45493694644E+002, -3.64352166739E+001
+2.29500000000E+009, +9.92274314385E+001, -5.25167506851E+001
+2.30000000000E+009, +6.64398474900E+001, -5.19767529317E+001
+2.30500000000E+009, +4.53232325618E+001, -4.68382428791E+001
+2.31000000000E+009, +3.22845846440E+001, -4.12656233510E+001
+2.31500000000E+009, +2.36899168360E+001, -3.69342607523E+001
+2.32000000000E+009, +1.81226326494E+001, -3.37564961323E+001
+2.32500000000E+009, +1.44632407227E+001, -3.15476031389E+001
+2.33000000000E+009, +1.19937382288E+001, -3.02408639280E+001
+2.33500000000E+009, +1.03850510600E+001, -2.94357715714E+001
+2.34000000000E+009, +9.39423909154E+000, -2.89895483042E+001
+2.34500000000E+009, +8.91760473980E+000, -2.88055311216E+001
+2.35000000000E+009, +8.90345527357E+000, -2.86520429976E+001
+2.35500000000E+009, +9.26884363513E+000, -2.83116833547E+001
+2.36000000000E+009, +9.96764109189E+000, -2.76680742304E+001
+2.36500000000E+009, +1.09858551734E+001, -2.65936172480E+001
+2.37000000000E+009, +1.24690660895E+001, -2.46405113843E+001
+2.37500000000E+009, +1.40614104033E+001, -2.19387366880E+001
+2.38000000000E+009, +1.58113481828E+001, -1.80001628761E+001
+2.38500000000E+009, +1.74865306211E+001, -1.30115789967E+001
+2.39000000000E+009, +1.89559877790E+001, -6.91696618716E+000
+2.39500000000E+009, +1.98495928118E+001, +1.09011058153E-001
+2.40000000000E+009, +1.99745131686E+001, +7.57290615909E+000
+2.40500000000E+009, +1.91759278006E+001, +1.48873329268E+001
+2.41000000000E+009, +1.77292907382E+001, +2.14699893578E+001
+2.41500000000E+009, +1.57188231589E+001, +2.69623971714E+001
+2.42000000000E+009, +1.35584331401E+001, +3.10777211706E+001
+2.42500000000E+009, +1.14165571878E+001, +3.39154841547E+001
+2.43000000000E+009, +9.44512556615E+000, +3.55531625134E+001
+2.43500000000E+009, +7.77925901145E+000, +3.62168083221E+001
+2.44000000000E+009, +6.33255153351E+000, +3.60944923875E+001
+2.44500000000E+009, +5.26179957370E+000, +3.54638266925E+001
+2.45000000000E+009, +4.36116769718E+000, +3.43755683716E+001
+2.45500000000E+009, +3.75580224477E+000, +3.30402839228E+001
+2.46000000000E+009, +3.22218613101E+000, +3.16244426400E+001
+2.46500000000E+009, +2.91033638542E+000, +3.01217226512E+001
+2.47000000000E+009, +2.71357722729E+000, +2.86373624238E+001
+2.47500000000E+009, +2.65565944656E+000, +2.72733583951E+001
+2.48000000000E+009, +2.70953420415E+000, +2.60805178967E+001
+2.48500000000E+009, +2.89906022498E+000, +2.50687832810E+001
+2.49000000000E+009, +3.23438365007E+000, +2.43671852534E+001
+2.49500000000E+009, +3.71334927176E+000, +2.39928793750E+001
+2.50000000000E+009, +4.28360810788E+000, +2.40663390722E+001
+2.50500000000E+009, +5.20381265143E+000, +2.46787790646E+001
+2.51000000000E+009, +6.36627457458E+000, +2.60723865277E+001
+2.51500000000E+009, +7.69890417773E+000, +2.79608041680E+001
+2.52000000000E+009, +9.53547200806E+000, +3.10867649429E+001
+2.52500000000E+009, +1.17414306893E+001, +3.52614072163E+001
+2.53000000000E+009, +1.41021883406E+001, +4.05732148129E+001
+2.53500000000E+009, +1.68705717779E+001, +4.72568191298E+001
+2.54000000000E+009, +1.96795143743E+001, +5.52602022860E+001
+2.54500000000E+009, +2.23936942930E+001, +6.47939910221E+001
+2.55000000000E+009, +2.45820314925E+001, +7.46382608786E+001
+2.55500000000E+009, +2.55923612550E+001, +8.45462683888E+001
+2.56000000000E+009, +2.57312878811E+001, +9.35167954822E+001
+2.56500000000E+009, +2.43915877861E+001, +1.01010315215E+002
+2.57000000000E+009, +2.23320865861E+001, +1.05702911198E+002
+2.57500000000E+009, +1.96322168443E+001, +1.08038695068E+002
+2.58000000000E+009, +1.73029229167E+001, +1.07773312633E+002
+2.58500000000E+009, +1.50222904951E+001, +1.05553443439E+002
+2.59000000000E+009, +1.32494901785E+001, +1.02161193649E+002
+2.59500000000E+009, +1.20226559381E+001, +9.79360093504E+001
+2.60000000000E+009, +1.16197598199E+001, +9.33707776578E+001
+2.60500000000E+009, +1.15927568146E+001, +8.88606608409E+001
+2.61000000000E+009, +1.21085833306E+001, +8.43180810239E+001
+2.61500000000E+009, +1.31483471980E+001, +8.02478456876E+001
+2.62000000000E+009, +1.47249467440E+001, +7.65019563412E+001
+2.62500000000E+009, +1.70098769975E+001, +7.29739086147E+001
+2.63000000000E+009, +2.02420025770E+001, +6.97640832312E+001
+2.63500000000E+009, +2.46097853357E+001, +6.61366532135E+001
+2.64000000000E+009, +3.02715872093E+001, +6.15354476837E+001
+2.64500000000E+009, +3.68886770534E+001, +5.52359019748E+001
+2.65000000000E+009, +4.29761412295E+001, +4.58211314896E+001
+2.65500000000E+009, +4.62869737037E+001, +3.38273066007E+001
+2.66000000000E+009, +4.52810986626E+001, +2.15044496122E+001
+2.66500000000E+009, +4.08515600538E+001, +1.17949807960E+001
+2.67000000000E+009, +3.51654551181E+001, +5.63851801052E+000
+2.67500000000E+009, +2.99846081905E+001, +2.49274966084E+000
+2.68000000000E+009, +2.59730443965E+001, +1.39060485806E+000
+2.68500000000E+009, +2.32917042277E+001, +1.59881547413E+000
+2.69000000000E+009, +2.16817585150E+001, +2.74426863329E+000
+2.69500000000E+009, +2.10109517205E+001, +4.72706311539E+000
+2.70000000000E+009, +2.11063273870E+001, +7.54715191533E+000
+2.70500000000E+009, +2.17127353024E+001, +1.13044243566E+001
+2.71000000000E+009, +2.27920305153E+001, +1.61844254791E+001
+2.71500000000E+009, +2.40110331332E+001, +2.20619612275E+001
+2.72000000000E+009, +2.52009032935E+001, +2.90836098678E+001
+2.72500000000E+009, +2.61141788150E+001, +3.70176716102E+001
+2.73000000000E+009, +2.61860496635E+001, +4.53915291193E+001
+2.73500000000E+009, +2.56053972336E+001, +5.35861835165E+001
+2.74000000000E+009, +2.38988396990E+001, +6.11888818757E+001
+2.74500000000E+009, +2.13219670332E+001, +6.74656326005E+001
+2.75000000000E+009, +1.83652586829E+001, +7.18456268969E+001
+2.75500000000E+009, +1.52593060983E+001, +7.43090437401E+001
+2.76000000000E+009, +1.22827135203E+001, +7.50511823828E+001
+2.76500000000E+009, +9.65546562086E+000, +7.43810859483E+001
+2.77000000000E+009, +7.77873388236E+000, +7.27109963968E+001
+2.77500000000E+009, +6.04185781450E+000, +7.02465898799E+001
+2.78000000000E+009, +4.78706478353E+000, +6.74956507161E+001
+2.78500000000E+009, +3.99641034280E+000, +6.43964570314E+001
+2.79000000000E+009, +3.47944002027E+000, +6.13489317036E+001
+2.79500000000E+009, +3.12087928397E+000, +5.84290847970E+001
+2.80000000000E+009, +3.01080272161E+000, +5.55700904557E+001
+2.80500000000E+009, +2.93477204697E+000, +5.31463887951E+001
+2.81000000000E+009, +3.14255551170E+000, +5.08653712362E+001
+2.81500000000E+009, +3.36715405583E+000, +4.90250535168E+001
+2.82000000000E+009, +3.74031994996E+000, +4.76199735914E+001
+2.82500000000E+009, +4.25579975147E+000, +4.66135602684E+001
+2.83000000000E+009, +5.05188823168E+000, +4.61274441509E+001
+2.83500000000E+009, +6.09870317355E+000, +4.61643731105E+001
+2.84000000000E+009, +7.32895353357E+000, +4.68895806870E+001
+2.84500000000E+009, +8.95427874987E+000, +4.84751572624E+001
+2.85000000000E+009, +1.13179898090E+001, +5.09861300442E+001
+2.85500000000E+009, +1.41666315611E+001, +5.47048234678E+001
+2.86000000000E+009, +1.79880257002E+001, +5.98244150442E+001
+2.86500000000E+009, +2.27749865164E+001, +6.66726401081E+001
+2.87000000000E+009, +2.90156294595E+001, +7.50276835309E+001
+2.87500000000E+009, +3.75880904976E+001, +8.53359851708E+001
+2.88000000000E+009, +4.71262113072E+001, +9.78608519430E+001
+2.88500000000E+009, +5.89419379694E+001, +1.12288592429E+002
+2.89000000000E+009, +7.19478065792E+001, +1.26966547070E+002
+2.89500000000E+009, +8.54561297846E+001, +1.42558353044E+002
+2.90000000000E+009, +9.77047379993E+001, +1.57254223740E+002
+2.90500000000E+009, +1.06995433432E+002, +1.67766556585E+002
+2.91000000000E+009, +1.11287714067E+002, +1.74760979358E+002
+2.91500000000E+009, +1.13344996731E+002, +1.75446672991E+002
+2.92000000000E+009, +1.10684990012E+002, +1.71712767179E+002
+2.92500000000E+009, +1.04710006990E+002, +1.61393219494E+002
+2.93000000000E+009, +9.78747296943E+001, +1.47590264873E+002
+2.93500000000E+009, +9.06308859169E+001, +1.31672060602E+002
+2.94000000000E+009, +8.14548247230E+001, +1.15156243683E+002
+2.94500000000E+009, +7.20220761247E+001, +9.86531854465E+001
+2.95000000000E+009, +6.15419568369E+001, +8.44186349945E+001
+2.95500000000E+009, +5.14623604364E+001, +7.28180808066E+001
+2.96000000000E+009, +4.20182031728E+001, +6.43176350887E+001
+2.96500000000E+009, +3.40074657744E+001, +5.81282402724E+001
+2.97000000000E+009, +2.77220162002E+001, +5.38064992298E+001
+2.97500000000E+009, +2.29279901806E+001, +5.06999968812E+001
+2.98000000000E+009, +1.95871421089E+001, +4.84349827147E+001
+2.98500000000E+009, +1.73908721931E+001, +4.66622295579E+001
+2.99000000000E+009, +1.60431755817E+001, +4.53374086704E+001
+2.99500000000E+009, +1.56137047708E+001, +4.44185127152E+001
+3.00000000000E+009, +1.59567004866E+001, +4.38747238080E+001
